1. 表出厂默认协议为“DL/T 645-2007 ”

   [DL/T645规约解析](https://blog.csdn.net/u012351051/article/details/77869547)

2. 仪表默认出厂参数： 波特率 2400bps， 偶校验。 1 停止位， 协议 DL/T645-2007， 表号为标签表号， 共 12 位（十进制） 

3. 读表的准确地址

   ```
   FE FE FE FE 68 AA AA AA AA AA AA 68 13 00 DF 16
   # FE 为前导地址
   # 68 帧起始符
   # AA AA AA AA AA AA算是读表地址专用地址
   # 13 控制码，根据协议，就是读地址控制码
   # 00 数据域长度
   # DF 为校验（累加和）
   # 16 是结尾
   ```

   [累加和在线计算](https://www.23bei.com/tool-8.html)

   返回值

   ```
   FE FE FE FE 68 35 44 02 19 12 18 68 93 06 68 77 35 4C 45 4B 17 16
   # 35 44 02 19 12 18 为地址
   
   FE FE FE FE 68 95 43 02 19 12 18 68 93 06 C8 76 35 4C 45 4B D5 16
   # 95 43 02 19 12 18 为地址
   ```

   

4. 切换至modbus协议

   ```
   FE FE FE FE 68 35 44 02 19 12 18 68 14 0E 33 33 35 3D 35 33 33 33 33 33 33 33 33 33 88 16
   
   FE FE FE FE 68 95 43 02 19 12 18 68 14 0E 33 33 35 3D 35 33 33 33 33 33 33 33 33 33 E7 16
   ```

   

5. 切换后

   ```
   ModBus_RTU 协议， 无校验位， 2 个停止位， 表号为标签表号后 2 位（十进制），波特率为 9600bps。
   ```
   
   
   
6. 读数

   ```
   23 03 00 00 00 0F 03 4c
   23 03 20 00 00 0F 08 8c
   23 03 40 00 00 02 D7 49
   
   
   
   5F 03 00 00 00 0F 08 B0
   5F 03 20 00 00 0F 03 70
   5F 03 40 00 00 02 DC B5
   ```

   






```c
#include <stdio.h>
#include <math.h>

// hex转dec
unsigned long HextoDec(unsigned char* hex, int start, int length) {
	int i;
	int end = start + length;
	unsigned long dec = 0;
	for (i = start; i < end; i++) {
		dec = dec << 8;
		dec += hex[i];
	}
	return dec;
}

// 浮点变量数据类型计算
double floatCalculate(unsigned int value)
{
	unsigned int S = (value >> 31) & 0x00000001;	// 符号位
	printf("### S = %d\r\n", S);
	unsigned int E = (value >> 23) & 0x000000FF;	// 指数位
	printf("### E = %d\r\n", E);
	unsigned int M = (value) & 0x007FFFFF;	// 尾数
	printf("### M = %d\r\n", M);


	printf("*** %f, %f, %f \r\n", pow(-1, S), pow(2, (E - 127)), (1 + M / pow(2, 23)));

	double fValue = pow(-1, S) * pow(2, (E - 127)) * (1 + M / pow(2, 23));

	return fValue;
}

int main()
{
	unsigned char PkBuf[] = {
		0x23,					// 0
		0x03,					// 1
		0x1E,					// 2
		0x43, 0x5D, 0xE6, 0x66,	//3 -6  电压
		0x3C, 0xCC, 0xCC, 0xCD,	//7 -10 电流
		0x00, 0x00, 0x00, 0x00,	//11-14 瞬时总有功功率
		0x00, 0x00, 0x00, 0x00,	//15-18 瞬时总无功功率
		0x3B, 0xBA, 0xC7, 0x11,	//19-22 瞬时总视在功率
		0x00, 0x00, 0x00, 0x00,	//23-26 保留
		0x00, 0x00, 0x00, 0x00,	//27-30 电网频率
		0x05, 0xE4, 0x09, 0x2B };

	unsigned int iV = HextoDec(PkBuf, 3, 4);
	float* fV = (float*)& iV;
	printf("V: %fV\r\n\r\n", *fV);

	unsigned int iI = HextoDec(PkBuf, 7, 4);
	float* fI = (float*)&iI;
	printf("I:%fA\r\n\r\n", *fI);

	unsigned int iP1 = HextoDec(PkBuf, 11, 4);
	unsigned int iP2 = HextoDec(PkBuf, 15, 4);
	unsigned int iP3 = HextoDec(PkBuf, 19, 4);
	float* fP1 = (float*)& iP1;
	float* fP2 = (float*)& iP2;
	float* fP3 = (float*)& iP3;

	printf("P:%fw %fw %fw\r\n\r\n", *fP1, *fP2, *fP3);

	unsigned int iF = HextoDec(PkBuf, 27, 4);
	float* fF = (float*)& iF;
	printf("F:%fHz\r\n\r\n", *fF);
}
```

